Circuit: * C:\Users\Raul Alzate\Desktop\Circuits_Electronics\bjt_switch\R_sweep.asc

Direct Newton iteration for .op point succeeded.
Semiconductor Device Operating Points:
                        --- Bipolar Transistors ---
Name:       q1
Model:    2n2222
Ib:       4.24e-04
Ic:       3.44e-02
Vbe:      7.62e-01
Vbc:      6.39e-01
Vce:      1.23e-01
BetaDC:   8.12e+01
Gm:       1.21e+00
Rpi:      1.30e+02
Rx:       1.00e+01
Ro:       4.24e+01
Cbe:      5.43e-10
Cbc:      2.63e-09
Cjs:      0.00e+00
BetaAC:   1.58e+02
Cbx:      0.00e+00
Ft:       6.08e+07



Date: Sun Sep 13 11:48:57 2020
Total elapsed time: 1.482 seconds.

tnom = 27
temp = 27
method = trap
totiter = 9
traniter = 0
tranpoints = 0
accept = 0
rejected = 0
matrix size = 6
fillins = 2
solver = Normal
Matrix Compiler1: 574 bytes object code size
Matrix Compiler2: 544 bytes object code size
